
T38D4 000:298 SEGGER J-Link V4.96d Log File (0001ms, 0275ms total)
T38D4 000:298 DLL Compiled: Jan 29 2015 11:45:37 (0001ms, 0275ms total)
T38D4 000:298 Logging started @ 2018-10-23 09:17 (0001ms, 0275ms total)
T38D4 000:299 JLINK_SetWarnOutHandler(...) (0000ms, 0275ms total)
T38D4 000:299 JLINK_OpenEx(...)
Firmware: J-Link V9 compiled Aug  3 2016 18:50:44
Hardware: V9.20
S/N: 29999997
Feature(s): GDB, RDI, FlashBP, FlashDL, JFlash, RDDI  returns O.K. (0269ms, 0544ms total)
T38D4 000:568 JLINK_SetErrorOutHandler(...) (0000ms, 0544ms total)
T38D4 000:568 JLINK_ExecCommand("ProjectFile = "D:\cooperation\stm32f407_ADC_DAC_DMA\stm32f407_ADC_DAC_MDA\test\MDK-ARM\JLinkSettings.ini"", ...)  returns 0x00 (0001ms, 0545ms total)
T38D4 000:570 JLINK_ExecCommand("Device = STM32F407ZE", ...)Device "STM32F407ZE" selected.  returns 0x00 (0001ms, 0546ms total)
T38D4 000:571 JLINK_ExecCommand("DisableConnectionTimeout", ...)  returns 0x01 (0000ms, 0546ms total)
T38D4 000:571 JLINK_GetHardwareVersion()  returns 0x16760 (0001ms, 0547ms total)
T38D4 000:572 JLINK_GetDLLVersion()  returns 49604 (0000ms, 0547ms total)
T38D4 000:572 JLINK_GetFirmwareString(...) (0000ms, 0547ms total)
T38D4 000:581 JLINK_GetDLLVersion()  returns 49604 (0000ms, 0547ms total)
T38D4 000:581 JLINK_GetCompileDateTime() (0001ms, 0548ms total)
T38D4 000:585 JLINK_GetFirmwareString(...) (0000ms, 0548ms total)
T38D4 000:589 JLINK_GetHardwareVersion()  returns 0x16760 (0000ms, 0548ms total)
T38D4 000:598 JLINK_TIF_Select(JLINKARM_TIF_SWD)  returns 0x00 (0001ms, 0549ms total)
T38D4 000:599 JLINK_SetSpeed(50000) (0000ms, 0549ms total)
T38D4 000:599 JLINK_GetId() >0x108 TIF>Found SWD-DP with ID 0x2BA01477 >0x0D TIF> >0x28 TIF> >0x0D TIF> >0x28 TIF> >0x0D TIF> >0x21 TIF> >0x0D TIF> >0x28 TIF> >0x0D TIF> >0x28 TIF> >0x0D TIF> >0x28 TIF> >0x0D TIF> >0x21 TIF> >0x0D TIF> >0x21 TIF> >0x0D TIF> >0x28 TIF> >0x0D TIF> >0x21 TIF> >0x0D TIF> >0x21 TIF> >0x0D TIF> >0x28 TIF> >0x0D TIF> >0x28 TIF> >0x0D TIF> >0x28 TIF> >0x0D TIF> >0x21 TIF> >0x0D TIF> >0x21 TIF> >0x0D TIF> >0x28 TIF> >0x0D TIF> >0x28 TIF> >0x108 TIF>Found SWD-DP with ID 0x2BA01477
 >0x0D TIF> >0x21 TIF> >0x0D TIF> >0x28 TIF> >0x0D TIF> >0x28 TIF> >0x0D TIF> >0x21 TIF> >0x0D TIF> >0x28 TIF> >0x0D TIF> >0x21 TIF> >0x0D TIF> >0x21 TIF> >0x0D TIF> >0x21 TIF> >0x0D TIF> >0x21 TIF> >0x0D TIF> >0x28 TIF> >0x0D TIF> >0x28 TIF> >0x0D TIF> >0x21 TIF> >0x0D TIF> >0x28 TIF> >0x0D TIF> >0x28 TIF> >0x0D TIF> >0x28 TIF> >0x0D TIF> >0x21 TIF> >0x0D TIF> >0x21 TIF> >0x0D TIF> >0x28 TIF> >0x0D TIF> >0x21 TIF> >0x0D TIF> >0x21 TIF>Found Cortex-M4 r0p1, Little endian.
 -- CPU_WriteMem(4 bytes @ 0xE0002000) -- CPU_ReadMem(4 bytes @ 0xE000EDF0) -- CPU_ReadMem(4 bytes @ 0xE0002000)FPUnit: 6 code (BP) slots and 2 literal slots -- CPU_ReadMem(4 bytes @ 0xE000EDFC) -- CPU_ReadMem(4 bytes @ 0xE0001000) -- CPU_WriteMem(4 bytes @ 0xE0001000) -- CPU_ReadMem(4 bytes @ 0xE000ED88) -- CPU_WriteMem(4 bytes @ 0xE000ED88) -- CPU_ReadMem(4 bytes @ 0xE000ED88) -- CPU_WriteMem(4 bytes @ 0xE000ED88) -- CPU_ReadMem(4 bytes @ 0xE00FF010)TPIU fitted. -- CPU_ReadMem(4 bytes @ 0xE00FF014)
ETM fitted. -- CPU_ReadMem(4 bytes @ 0xE00FF018) >0x0D TIF> >0x21 TIF>  returns 0x2BA01477 (0029ms, 0578ms total)
T38D4 000:628 JLINK_GetDLLVersion()  returns 49604 (0000ms, 0578ms total)
T38D4 000:628 JLINK_CORE_GetFound()  returns 0xE0000FF (0000ms, 0578ms total)
T38D4 000:628 JLINK_GetDebugInfo(0x100) -- Value=0xE00FF003  returns 0x00 (0000ms, 0578ms total)
T38D4 000:630 JLINK_ReadMem (0xE00FF000, 0x0020 Bytes, ...) -- CPU is running -- CPU_ReadMem(32 bytes @ 0xE00FF000) - Data: 03 F0 F0 FF 03 20 F0 FF 03 30 F0 FF 03 10 F0 FF ...  returns 0x00 (0001ms, 0579ms total)
T38D4 000:631 JLINK_ReadMem (0xE000EFF0, 0x0010 Bytes, ...) -- CPU is running -- CPU_ReadMem(16 bytes @ 0xE000EFF0) - Data: 0D 00 00 00 E0 00 00 00 05 00 00 00 B1 00 00 00  returns 0x00 (0000ms, 0579ms total)
T38D4 000:631 JLINK_ReadMem (0xE000EFD0, 0x0020 Bytes, ...) -- CPU is running -- CPU_ReadMem(32 bytes @ 0xE000EFD0) - Data: 04 00 00 00 00 00 00 00 00 00 00 00 00 00 00 00 ...  returns 0x00 (0001ms, 0580ms total)
T38D4 000:632 JLINK_ReadMem (0xE0001FF0, 0x0010 Bytes, ...) -- CPU is running -- CPU_ReadMem(16 bytes @ 0xE0001FF0) - Data: 0D 00 00 00 E0 00 00 00 05 00 00 00 B1 00 00 00  returns 0x00 (0000ms, 0580ms total)
T38D4 000:632 JLINK_ReadMem (0xE0001FD0, 0x0020 Bytes, ...) -- CPU is running -- CPU_ReadMem(32 bytes @ 0xE0001FD0) - Data: 04 00 00 00 00 00 00 00 00 00 00 00 00 00 00 00 ...  returns 0x00 (0001ms, 0581ms total)
T38D4 000:633 JLINK_ReadMem (0xE0002FF0, 0x0010 Bytes, ...) -- CPU is running -- CPU_ReadMem(16 bytes @ 0xE0002FF0) - Data: 0D 00 00 00 E0 00 00 00 05 00 00 00 B1 00 00 00  returns 0x00 (0000ms, 0581ms total)
T38D4 000:633 JLINK_ReadMem (0xE0002FD0, 0x0020 Bytes, ...) -- CPU is running -- CPU_ReadMem(32 bytes @ 0xE0002FD0) - Data: 04 00 00 00 00 00 00 00 00 00 00 00 00 00 00 00 ...  returns 0x00 (0001ms, 0582ms total)
T38D4 000:634 JLINK_ReadMem (0xE0000FF0, 0x0010 Bytes, ...) -- CPU is running -- CPU_ReadMem(16 bytes @ 0xE0000FF0) - Data: 0D 00 00 00 E0 00 00 00 05 00 00 00 B1 00 00 00  returns 0x00 (0000ms, 0582ms total)
T38D4 000:634 JLINK_ReadMem (0xE0000FD0, 0x0020 Bytes, ...) -- CPU is running -- CPU_ReadMem(32 bytes @ 0xE0000FD0) - Data: 04 00 00 00 00 00 00 00 00 00 00 00 00 00 00 00 ...  returns 0x00 (0000ms, 0582ms total)
T38D4 000:634 JLINK_ReadMem (0xE0040FF0, 0x0010 Bytes, ...) -- CPU is running -- CPU_ReadMem(16 bytes @ 0xE0040FF0) - Data: 0D 00 00 00 90 00 00 00 05 00 00 00 B1 00 00 00  returns 0x00 (0001ms, 0583ms total)
T38D4 000:635 JLINK_ReadMem (0xE0040FD0, 0x0020 Bytes, ...) -- CPU is running -- CPU_ReadMem(32 bytes @ 0xE0040FD0) - Data: 04 00 00 00 00 00 00 00 00 00 00 00 00 00 00 00 ...  returns 0x00 (0000ms, 0583ms total)
T38D4 000:635 JLINK_ReadMem (0xE0041FF0, 0x0010 Bytes, ...) -- CPU is running -- CPU_ReadMem(16 bytes @ 0xE0041FF0) - Data: 0D 00 00 00 90 00 00 00 05 00 00 00 B1 00 00 00  returns 0x00 (0001ms, 0584ms total)
T38D4 000:636 JLINK_ReadMem (0xE0041FD0, 0x0020 Bytes, ...) -- CPU is running -- CPU_ReadMem(32 bytes @ 0xE0041FD0) - Data: 04 00 00 00 00 00 00 00 00 00 00 00 00 00 00 00 ...  returns 0x00 (0000ms, 0584ms total)
T38D4 000:636 JLINK_ReadMemU32(0xE000EF40, 0x0001 Items, ...) -- CPU is running -- CPU_ReadMem(4 bytes @ 0xE000EF40) - Data: 21 00 11 10  returns 0x01 (0000ms, 0584ms total)
T38D4 000:636 JLINK_ReadMemU32(0xE000EF44, 0x0001 Items, ...) -- CPU is running -- CPU_ReadMem(4 bytes @ 0xE000EF44) - Data: 11 00 00 11  returns 0x01 (0001ms, 0585ms total)
T38D4 000:637 JLINK_ReadMemU32(0xE000ED00, 0x0001 Items, ...) -- CPU is running -- CPU_ReadMem(4 bytes @ 0xE000ED00) - Data: 41 C2 0F 41  returns 0x01 (0000ms, 0585ms total)
T38D4 000:637 JLINK_SetResetType(JLINKARM_RESET_TYPE_NORMAL)  returns JLINKARM_RESET_TYPE_NORMAL (0000ms, 0585ms total)
T38D4 000:637 JLINK_Reset() -- CPU is running -- CPU_WriteMem(4 bytes @ 0xE000EDF0) -- CPU is running -- CPU_WriteMem(4 bytes @ 0xE000EDFC) >0x35 TIF> -- CPU is running -- CPU_WriteMem(4 bytes @ 0xE000ED0C) -- CPU is running -- CPU_ReadMem(4 bytes @ 0xE000EDF0) -- CPU is running -- CPU_ReadMem(4 bytes @ 0xE000EDF0) -- CPU is running -- CPU_WriteMem(4 bytes @ 0xE000EDF0) -- CPU is running -- CPU_WriteMem(4 bytes @ 0xE000EDFC) -- CPU is running -- CPU_ReadMem(4 bytes @ 0xE000EDF0)
 -- CPU_WriteMem(4 bytes @ 0xE0002000) -- CPU_ReadMem(4 bytes @ 0xE000EDFC) -- CPU_ReadMem(4 bytes @ 0xE0001000) (0015ms, 0600ms total)
T38D4 000:652 JLINK_Halt()  returns 0x00 (0000ms, 0600ms total)
T38D4 000:652 JLINK_IsHalted()  returns TRUE (0000ms, 0600ms total)
T38D4 000:652 JLINK_ReadMemU32(0xE000EDF0, 0x0001 Items, ...) -- CPU_ReadMem(4 bytes @ 0xE000EDF0) - Data: 03 00 03 00  returns 0x01 (0001ms, 0601ms total)
T38D4 000:653 JLINK_WriteU32(0xE000EDF0, 0xA05F0003) -- CPU_WriteMem(4 bytes @ 0xE000EDF0)  returns 0x00 (0000ms, 0601ms total)
T38D4 000:653 JLINK_WriteU32(0xE000EDFC, 0x01000000) -- CPU_WriteMem(4 bytes @ 0xE000EDFC)  returns 0x00 (0000ms, 0601ms total)
T38D4 000:661 JLINK_GetHWStatus(...)  returns 0x00 (0000ms, 0601ms total)
T38D4 000:667 JLINK_GetNumBPUnits(Type = 0xFFFFFF00)  returns 0x06 (0000ms, 0601ms total)
T38D4 000:667 JLINK_GetNumBPUnits(Type = 0xF0)  returns 0x2000 (0000ms, 0601ms total)
T38D4 000:667 JLINK_GetNumWPUnits()  returns 0x04 (0000ms, 0601ms total)
T38D4 000:672 JLINK_GetSpeed()  returns 0x2EE0 (0000ms, 0601ms total)
T38D4 000:675 JLINK_ReadMemU32(0xE000E004, 0x0001 Items, ...) -- CPU_ReadMem(4 bytes @ 0xE000E004) - Data: 02 00 00 00  returns 0x01 (0001ms, 0602ms total)
T38D4 000:676 JLINK_ReadMemU32(0xE000E004, 0x0001 Items, ...) -- CPU_ReadMem(4 bytes @ 0xE000E004) - Data: 02 00 00 00  returns 0x01 (0000ms, 0602ms total)
T38D4 000:676 JLINK_WriteMem(0xE0001000, 0x001C Bytes, ...) - Data: 01 00 00 00 00 00 00 00 00 00 00 00 00 00 00 00 ... -- CPU_WriteMem(28 bytes @ 0xE0001000)  returns 0x1C (0001ms, 0603ms total)
T38D4 000:677 JLINK_ReadMem (0xE0001000, 0x001C Bytes, ...) -- CPU_ReadMem(28 bytes @ 0xE0001000) - Data: 01 00 00 40 00 00 00 00 00 00 00 00 00 00 00 00 ...  returns 0x00 (0001ms, 0604ms total)
T38D4 000:678 JLINK_Halt()  returns 0x00 (0000ms, 0604ms total)
T38D4 000:678 JLINK_IsHalted()  returns TRUE (0000ms, 0604ms total)
T38D4 000:680 JLINK_WriteMem(0x20000000, 0x0180 Bytes, ...) - Data: 00 BE 0A E0 0D 78 2D 06 68 40 08 24 40 00 00 D3 ... -- CPU_WriteMem(384 bytes @ 0x20000000)  returns 0x180 (0002ms, 0606ms total)
T38D4 000:682 JLINK_WriteReg(R0, 0x08000000)  returns 0x00 (0000ms, 0606ms total)
T38D4 000:682 JLINK_WriteReg(R1, 0x00B71B00)  returns 0x00 (0000ms, 0606ms total)
T38D4 000:682 JLINK_WriteReg(R2, 0x00000001)  returns 0x00 (0001ms, 0607ms total)
T38D4 000:683 JLINK_WriteReg(R3, 0x00000000)  returns 0x00 (0000ms, 0607ms total)
T38D4 000:683 JLINK_WriteReg(R4, 0x00000000)  returns 0x00 (0000ms, 0607ms total)
T38D4 000:683 JLINK_WriteReg(R5, 0x00000000)  returns 0x00 (0000ms, 0607ms total)
T38D4 000:683 JLINK_WriteReg(R6, 0x00000000)  returns 0x00 (0000ms, 0607ms total)
T38D4 000:683 JLINK_WriteReg(R7, 0x00000000)  returns 0x00 (0000ms, 0607ms total)
T38D4 000:683 JLINK_WriteReg(R8, 0x00000000)  returns 0x00 (0000ms, 0607ms total)
T38D4 000:683 JLINK_WriteReg(R9, 0x2000017C)  returns 0x00 (0000ms, 0607ms total)
T38D4 000:683 JLINK_WriteReg(R10, 0x00000000)  returns 0x00 (0000ms, 0607ms total)
T38D4 000:683 JLINK_WriteReg(R11, 0x00000000)  returns 0x00 (0001ms, 0608ms total)
T38D4 000:684 JLINK_WriteReg(R12, 0x00000000)  returns 0x00 (0000ms, 0608ms total)
T38D4 000:684 JLINK_WriteReg(R13 (SP), 0x20001000)  returns 0x00 (0000ms, 0608ms total)
T38D4 000:684 JLINK_WriteReg(R14, 0x20000001)  returns 0x00 (0000ms, 0608ms total)
T38D4 000:684 JLINK_WriteReg(R15 (PC), 0x20000054)  returns 0x00 (0000ms, 0608ms total)
T38D4 000:684 JLINK_WriteReg(XPSR, 0x01000000)  returns 0x00 (0000ms, 0608ms total)
T38D4 000:684 JLINK_WriteReg(MSP, 0x20001000)  returns 0x00 (0000ms, 0608ms total)
T38D4 000:684 JLINK_WriteReg(PSP, 0x20001000)  returns 0x00 (0000ms, 0608ms total)
T38D4 000:684 JLINK_WriteReg(CFBP, 0x00000000)  returns 0x00 (0000ms, 0608ms total)
T38D4 000:684 JLINK_SetBPEx(Addr = 0x20000000, Type = 0xFFFFFFF2) -- CPU_ReadMem(2 bytes @ 0x20000000)  returns 0x00000001 (0001ms, 0609ms total)
T38D4 000:685 JLINK_Go() -- CPU_WriteMem(2 bytes @ 0x20000000) -- CPU_WriteMem(4 bytes @ 0xE0002008) -- CPU_WriteMem(4 bytes @ 0xE000200C) -- CPU_WriteMem(4 bytes @ 0xE0002010) -- CPU_WriteMem(4 bytes @ 0xE0002014) -- CPU_WriteMem(4 bytes @ 0xE0002018) -- CPU_WriteMem(4 bytes @ 0xE000201C) -- CPU_WriteMem(4 bytes @ 0xE0001004) (0002ms, 0611ms total)
T38D4 000:687 JLINK_IsHalted() -- CPU_ReadMem(2 bytes @ 0x20000000)  returns TRUE (0001ms, 0612ms total)
T38D4 000:688 JLINK_ReadReg(R15 (PC))  returns 0x20000000 (0001ms, 0612ms total)
T38D4 000:689 JLINK_ClrBPEx(BPHandle = 0x00000001)  returns 0x00 (0000ms, 0612ms total)
T38D4 000:689 JLINK_ReadReg(R0)  returns 0x00000000 (0000ms, 0612ms total)
T38D4 000:689 JLINK_WriteReg(R0, 0x08000000)  returns 0x00 (0000ms, 0612ms total)
T38D4 000:689 JLINK_WriteReg(R1, 0x00004000)  returns 0x00 (0000ms, 0612ms total)
T38D4 000:689 JLINK_WriteReg(R2, 0x000000FF)  returns 0x00 (0000ms, 0612ms total)
T38D4 000:689 JLINK_WriteReg(R3, 0x00000000)  returns 0x00 (0000ms, 0612ms total)
T38D4 000:689 JLINK_WriteReg(R4, 0x00000000)  returns 0x00 (0001ms, 0613ms total)
T38D4 000:690 JLINK_WriteReg(R5, 0x00000000)  returns 0x00 (0000ms, 0613ms total)
T38D4 000:690 JLINK_WriteReg(R6, 0x00000000)  returns 0x00 (0000ms, 0613ms total)
T38D4 000:690 JLINK_WriteReg(R7, 0x00000000)  returns 0x00 (0000ms, 0613ms total)
T38D4 000:690 JLINK_WriteReg(R8, 0x00000000)  returns 0x00 (0000ms, 0613ms total)
T38D4 000:690 JLINK_WriteReg(R9, 0x2000017C)  returns 0x00 (0000ms, 0613ms total)
T38D4 000:690 JLINK_WriteReg(R10, 0x00000000)  returns 0x00 (0000ms, 0613ms total)
T38D4 000:690 JLINK_WriteReg(R11, 0x00000000)  returns 0x00 (0000ms, 0613ms total)
T38D4 000:690 JLINK_WriteReg(R12, 0x00000000)  returns 0x00 (0000ms, 0613ms total)
T38D4 000:690 JLINK_WriteReg(R13 (SP), 0x20001000)  returns 0x00 (0000ms, 0613ms total)
T38D4 000:690 JLINK_WriteReg(R14, 0x20000001)  returns 0x00 (0001ms, 0614ms total)
T38D4 000:691 JLINK_WriteReg(R15 (PC), 0x20000020)  returns 0x00 (0000ms, 0614ms total)
T38D4 000:691 JLINK_WriteReg(XPSR, 0x01000000)  returns 0x00 (0000ms, 0614ms total)
T38D4 000:691 JLINK_WriteReg(MSP, 0x20001000)  returns 0x00 (0000ms, 0614ms total)
T38D4 000:691 JLINK_WriteReg(PSP, 0x20001000)  returns 0x00 (0000ms, 0614ms total)
T38D4 000:691 JLINK_WriteReg(CFBP, 0x00000000)  returns 0x00 (0000ms, 0614ms total)
T38D4 000:691 JLINK_SetBPEx(Addr = 0x20000000, Type = 0xFFFFFFF2)  returns 0x00000002 (0000ms, 0614ms total)
T38D4 000:691 JLINK_Go() (0002ms, 0616ms total)
T38D4 000:693 JLINK_IsHalted()  returns FALSE (0000ms, 0616ms total)
T38D4 000:746 JLINK_IsHalted() -- CPU_ReadMem(2 bytes @ 0x20000000)  returns TRUE (0001ms, 0617ms total)
T38D4 000:747 JLINK_ReadReg(R15 (PC))  returns 0x20000000 (0000ms, 0616ms total)
T38D4 000:747 JLINK_ClrBPEx(BPHandle = 0x00000002)  returns 0x00 (0001ms, 0617ms total)
T38D4 000:748 JLINK_ReadReg(R0)  returns 0x00000000 (0000ms, 0617ms total)
T38D4 000:748 JLINK_WriteReg(R0, 0x08004000)  returns 0x00 (0000ms, 0617ms total)
T38D4 000:748 JLINK_WriteReg(R1, 0x00004000)  returns 0x00 (0000ms, 0617ms total)
T38D4 000:748 JLINK_WriteReg(R2, 0x000000FF)  returns 0x00 (0000ms, 0617ms total)
T38D4 000:748 JLINK_WriteReg(R3, 0x00000000)  returns 0x00 (0000ms, 0617ms total)
T38D4 000:748 JLINK_WriteReg(R4, 0x00000000)  returns 0x00 (0001ms, 0618ms total)
T38D4 000:749 JLINK_WriteReg(R5, 0x00000000)  returns 0x00 (0000ms, 0618ms total)
T38D4 000:749 JLINK_WriteReg(R6, 0x00000000)  returns 0x00 (0000ms, 0618ms total)
T38D4 000:749 JLINK_WriteReg(R7, 0x00000000)  returns 0x00 (0000ms, 0618ms total)
T38D4 000:749 JLINK_WriteReg(R8, 0x00000000)  returns 0x00 (0000ms, 0618ms total)
T38D4 000:749 JLINK_WriteReg(R9, 0x2000017C)  returns 0x00 (0000ms, 0618ms total)
T38D4 000:749 JLINK_WriteReg(R10, 0x00000000)  returns 0x00 (0000ms, 0618ms total)
T38D4 000:749 JLINK_WriteReg(R11, 0x00000000)  returns 0x00 (0000ms, 0618ms total)
T38D4 000:749 JLINK_WriteReg(R12, 0x00000000)  returns 0x00 (0000ms, 0618ms total)
T38D4 000:749 JLINK_WriteReg(R13 (SP), 0x20001000)  returns 0x00 (0000ms, 0618ms total)
T38D4 000:749 JLINK_WriteReg(R14, 0x20000001)  returns 0x00 (0001ms, 0619ms total)
T38D4 000:750 JLINK_WriteReg(R15 (PC), 0x20000020)  returns 0x00 (0000ms, 0619ms total)
T38D4 000:750 JLINK_WriteReg(XPSR, 0x01000000)  returns 0x00 (0000ms, 0619ms total)
T38D4 000:750 JLINK_WriteReg(MSP, 0x20001000)  returns 0x00 (0000ms, 0619ms total)
T38D4 000:750 JLINK_WriteReg(PSP, 0x20001000)  returns 0x00 (0000ms, 0619ms total)
T38D4 000:750 JLINK_WriteReg(CFBP, 0x00000000)  returns 0x00 (0000ms, 0619ms total)
T38D4 000:750 JLINK_SetBPEx(Addr = 0x20000000, Type = 0xFFFFFFF2)  returns 0x00000003 (0000ms, 0619ms total)
T38D4 000:750 JLINK_Go() (0001ms, 0620ms total)
T38D4 000:751 JLINK_IsHalted()  returns FALSE (0000ms, 0620ms total)
T38D4 000:753 JLINK_IsHalted()  returns FALSE (0000ms, 0620ms total)
T38D4 000:755 JLINK_IsHalted()  returns FALSE (0000ms, 0620ms total)
T38D4 000:757 JLINK_IsHalted()  returns FALSE (0000ms, 0620ms total)
T38D4 000:759 JLINK_IsHalted()  returns FALSE (0000ms, 0620ms total)
T38D4 000:761 JLINK_IsHalted()  returns FALSE (0000ms, 0620ms total)
T38D4 000:777 JLINK_IsHalted() -- CPU_ReadMem(2 bytes @ 0x20000000)  returns TRUE (0002ms, 0622ms total)
T38D4 000:779 JLINK_ReadReg(R15 (PC))  returns 0x20000000 (0000ms, 0620ms total)
T38D4 000:779 JLINK_ClrBPEx(BPHandle = 0x00000003)  returns 0x00 (0000ms, 0620ms total)
T38D4 000:779 JLINK_ReadReg(R0)  returns 0x00000000 (0000ms, 0620ms total)
T38D4 000:780 JLINK_WriteReg(R0, 0x08008000)  returns 0x00 (0000ms, 0620ms total)
T38D4 000:780 JLINK_WriteReg(R1, 0x00004000)  returns 0x00 (0000ms, 0620ms total)
T38D4 000:780 JLINK_WriteReg(R2, 0x000000FF)  returns 0x00 (0000ms, 0620ms total)
T38D4 000:780 JLINK_WriteReg(R3, 0x00000000)  returns 0x00 (0000ms, 0620ms total)
T38D4 000:780 JLINK_WriteReg(R4, 0x00000000)  returns 0x00 (0000ms, 0620ms total)
T38D4 000:780 JLINK_WriteReg(R5, 0x00000000)  returns 0x00 (0000ms, 0620ms total)
T38D4 000:780 JLINK_WriteReg(R6, 0x00000000)  returns 0x00 (0000ms, 0620ms total)
T38D4 000:780 JLINK_WriteReg(R7, 0x00000000)  returns 0x00 (0000ms, 0620ms total)
T38D4 000:780 JLINK_WriteReg(R8, 0x00000000)  returns 0x00 (0001ms, 0621ms total)
T38D4 000:781 JLINK_WriteReg(R9, 0x2000017C)  returns 0x00 (0000ms, 0621ms total)
T38D4 000:781 JLINK_WriteReg(R10, 0x00000000)  returns 0x00 (0000ms, 0621ms total)
T38D4 000:781 JLINK_WriteReg(R11, 0x00000000)  returns 0x00 (0000ms, 0621ms total)
T38D4 000:781 JLINK_WriteReg(R12, 0x00000000)  returns 0x00 (0000ms, 0621ms total)
T38D4 000:781 JLINK_WriteReg(R13 (SP), 0x20001000)  returns 0x00 (0000ms, 0621ms total)
T38D4 000:781 JLINK_WriteReg(R14, 0x20000001)  returns 0x00 (0000ms, 0621ms total)
T38D4 000:781 JLINK_WriteReg(R15 (PC), 0x20000020)  returns 0x00 (0000ms, 0621ms total)
T38D4 000:781 JLINK_WriteReg(XPSR, 0x01000000)  returns 0x00 (0000ms, 0621ms total)
T38D4 000:781 JLINK_WriteReg(MSP, 0x20001000)  returns 0x00 (0001ms, 0622ms total)
T38D4 000:782 JLINK_WriteReg(PSP, 0x20001000)  returns 0x00 (0000ms, 0622ms total)
T38D4 000:782 JLINK_WriteReg(CFBP, 0x00000000)  returns 0x00 (0000ms, 0622ms total)
T38D4 000:782 JLINK_SetBPEx(Addr = 0x20000000, Type = 0xFFFFFFF2)  returns 0x00000004 (0000ms, 0622ms total)
T38D4 000:782 JLINK_Go() (0001ms, 0623ms total)
T38D4 000:783 JLINK_IsHalted()  returns FALSE (0000ms, 0623ms total)
T38D4 000:785 JLINK_IsHalted()  returns FALSE (0000ms, 0623ms total)
T38D4 000:786 JLINK_IsHalted()  returns FALSE (0000ms, 0623ms total)
T38D4 000:788 JLINK_IsHalted()  returns FALSE (0000ms, 0623ms total)
T38D4 000:790 JLINK_IsHalted()  returns FALSE (0000ms, 0623ms total)
T38D4 000:792 JLINK_IsHalted()  returns FALSE (0000ms, 0623ms total)
T38D4 000:794 JLINK_IsHalted()  returns FALSE (0000ms, 0623ms total)
T38D4 000:796 JLINK_IsHalted() -- CPU_ReadMem(2 bytes @ 0x20000000)  returns TRUE (0002ms, 0625ms total)
T38D4 000:798 JLINK_ReadReg(R15 (PC))  returns 0x20000000 (0000ms, 0623ms total)
T38D4 000:798 JLINK_ClrBPEx(BPHandle = 0x00000004)  returns 0x00 (0001ms, 0624ms total)
T38D4 000:799 JLINK_ReadReg(R0)  returns 0x00000000 (0000ms, 0624ms total)
T38D4 000:800 JLINK_WriteReg(R0, 0x0800C000)  returns 0x00 (0000ms, 0624ms total)
T38D4 000:800 JLINK_WriteReg(R1, 0x00004000)  returns 0x00 (0000ms, 0624ms total)
T38D4 000:800 JLINK_WriteReg(R2, 0x000000FF)  returns 0x00 (0001ms, 0625ms total)
T38D4 000:801 JLINK_WriteReg(R3, 0x00000000)  returns 0x00 (0000ms, 0625ms total)
T38D4 000:801 JLINK_WriteReg(R4, 0x00000000)  returns 0x00 (0000ms, 0625ms total)
T38D4 000:801 JLINK_WriteReg(R5, 0x00000000)  returns 0x00 (0000ms, 0625ms total)
T38D4 000:801 JLINK_WriteReg(R6, 0x00000000)  returns 0x00 (0001ms, 0626ms total)
T38D4 000:802 JLINK_WriteReg(R7, 0x00000000)  returns 0x00 (0000ms, 0626ms total)
T38D4 000:802 JLINK_WriteReg(R8, 0x00000000)  returns 0x00 (0000ms, 0626ms total)
T38D4 000:802 JLINK_WriteReg(R9, 0x2000017C)  returns 0x00 (0001ms, 0627ms total)
T38D4 000:803 JLINK_WriteReg(R10, 0x00000000)  returns 0x00 (0000ms, 0627ms total)
T38D4 000:803 JLINK_WriteReg(R11, 0x00000000)  returns 0x00 (0000ms, 0627ms total)
T38D4 000:803 JLINK_WriteReg(R12, 0x00000000)  returns 0x00 (0000ms, 0627ms total)
T38D4 000:803 JLINK_WriteReg(R13 (SP), 0x20001000)  returns 0x00 (0000ms, 0627ms total)
T38D4 000:803 JLINK_WriteReg(R14, 0x20000001)  returns 0x00 (0001ms, 0628ms total)
T38D4 000:804 JLINK_WriteReg(R15 (PC), 0x20000020)  returns 0x00 (0000ms, 0628ms total)
T38D4 000:804 JLINK_WriteReg(XPSR, 0x01000000)  returns 0x00 (0000ms, 0628ms total)
T38D4 000:804 JLINK_WriteReg(MSP, 0x20001000)  returns 0x00 (0000ms, 0628ms total)
T38D4 000:804 JLINK_WriteReg(PSP, 0x20001000)  returns 0x00 (0000ms, 0628ms total)
T38D4 000:805 JLINK_WriteReg(CFBP, 0x00000000)  returns 0x00 (0000ms, 0629ms total)
T38D4 000:805 JLINK_SetBPEx(Addr = 0x20000000, Type = 0xFFFFFFF2)  returns 0x00000005 (0000ms, 0629ms total)
T38D4 000:805 JLINK_Go() (0001ms, 0630ms total)
T38D4 000:806 JLINK_IsHalted()  returns FALSE (0000ms, 0630ms total)
T38D4 000:812 JLINK_IsHalted()  returns FALSE (0000ms, 0630ms total)
T38D4 000:815 JLINK_IsHalted()  returns FALSE (0000ms, 0630ms total)
T38D4 000:816 JLINK_IsHalted()  returns FALSE (0001ms, 0631ms total)
T38D4 000:818 JLINK_IsHalted()  returns FALSE (0000ms, 0630ms total)
T38D4 000:820 JLINK_IsHalted()  returns FALSE (0000ms, 0630ms total)
T38D4 000:822 JLINK_IsHalted() -- CPU_ReadMem(2 bytes @ 0x20000000)  returns TRUE (0002ms, 0632ms total)
T38D4 000:824 JLINK_ReadReg(R15 (PC))  returns 0x20000000 (0000ms, 0630ms total)
T38D4 000:824 JLINK_ClrBPEx(BPHandle = 0x00000005)  returns 0x00 (0000ms, 0630ms total)
T38D4 000:824 JLINK_ReadReg(R0)  returns 0x00000000 (0000ms, 0630ms total)
T38D4 000:825 JLINK_WriteReg(R0, 0x08010000)  returns 0x00 (0000ms, 0630ms total)
T38D4 000:825 JLINK_WriteReg(R1, 0x00010000)  returns 0x00 (0000ms, 0630ms total)
T38D4 000:825 JLINK_WriteReg(R2, 0x000000FF)  returns 0x00 (0000ms, 0630ms total)
T38D4 000:825 JLINK_WriteReg(R3, 0x00000000)  returns 0x00 (0000ms, 0630ms total)
T38D4 000:825 JLINK_WriteReg(R4, 0x00000000)  returns 0x00 (0000ms, 0630ms total)
T38D4 000:825 JLINK_WriteReg(R5, 0x00000000)  returns 0x00 (0000ms, 0630ms total)
T38D4 000:825 JLINK_WriteReg(R6, 0x00000000)  returns 0x00 (0001ms, 0631ms total)
T38D4 000:826 JLINK_WriteReg(R7, 0x00000000)  returns 0x00 (0000ms, 0631ms total)
T38D4 000:826 JLINK_WriteReg(R8, 0x00000000)  returns 0x00 (0000ms, 0631ms total)
T38D4 000:826 JLINK_WriteReg(R9, 0x2000017C)  returns 0x00 (0000ms, 0631ms total)
T38D4 000:826 JLINK_WriteReg(R10, 0x00000000)  returns 0x00 (0000ms, 0631ms total)
T38D4 000:826 JLINK_WriteReg(R11, 0x00000000)  returns 0x00 (0000ms, 0631ms total)
T38D4 000:826 JLINK_WriteReg(R12, 0x00000000)  returns 0x00 (0000ms, 0631ms total)
T38D4 000:826 JLINK_WriteReg(R13 (SP), 0x20001000)  returns 0x00 (0000ms, 0631ms total)
T38D4 000:826 JLINK_WriteReg(R14, 0x20000001)  returns 0x00 (0000ms, 0631ms total)
T38D4 000:826 JLINK_WriteReg(R15 (PC), 0x20000020)  returns 0x00 (0000ms, 0631ms total)
T38D4 000:826 JLINK_WriteReg(XPSR, 0x01000000)  returns 0x00 (0001ms, 0632ms total)
T38D4 000:827 JLINK_WriteReg(MSP, 0x20001000)  returns 0x00 (0000ms, 0632ms total)
T38D4 000:827 JLINK_WriteReg(PSP, 0x20001000)  returns 0x00 (0000ms, 0632ms total)
T38D4 000:827 JLINK_WriteReg(CFBP, 0x00000000)  returns 0x00 (0000ms, 0632ms total)
T38D4 000:827 JLINK_SetBPEx(Addr = 0x20000000, Type = 0xFFFFFFF2)  returns 0x00000006 (0000ms, 0632ms total)
T38D4 000:827 JLINK_Go() (0001ms, 0633ms total)
T38D4 000:828 JLINK_IsHalted()  returns FALSE (0001ms, 0634ms total)
T38D4 000:832 JLINK_IsHalted()  returns FALSE (0000ms, 0633ms total)
T38D4 000:834 JLINK_IsHalted()  returns FALSE (0000ms, 0633ms total)
T38D4 000:836 JLINK_IsHalted()  returns FALSE (0000ms, 0633ms total)
T38D4 000:838 JLINK_IsHalted()  returns FALSE (0001ms, 0634ms total)
T38D4 000:841 JLINK_IsHalted()  returns FALSE (0000ms, 0633ms total)
T38D4 000:843 JLINK_IsHalted()  returns FALSE (0000ms, 0633ms total)
T38D4 000:845 JLINK_IsHalted()  returns FALSE (0000ms, 0633ms total)
T38D4 000:847 JLINK_IsHalted()  returns FALSE (0000ms, 0633ms total)
T38D4 000:850 JLINK_IsHalted()  returns FALSE (0001ms, 0634ms total)
T38D4 000:853 JLINK_IsHalted()  returns FALSE (0001ms, 0634ms total)
T38D4 000:856 JLINK_IsHalted()  returns FALSE (0001ms, 0634ms total)
T38D4 000:859 JLINK_IsHalted()  returns FALSE (0000ms, 0633ms total)
T38D4 000:862 JLINK_IsHalted()  returns FALSE (0000ms, 0633ms total)
T38D4 000:864 JLINK_IsHalted()  returns FALSE (0000ms, 0633ms total)
T38D4 000:867 JLINK_IsHalted()  returns FALSE (0000ms, 0633ms total)
T38D4 000:882 JLINK_IsHalted()  returns FALSE (0000ms, 0633ms total)
T38D4 000:884 JLINK_IsHalted()  returns FALSE (0000ms, 0633ms total)
T38D4 000:886 JLINK_IsHalted() -- CPU_ReadMem(2 bytes @ 0x20000000)  returns TRUE (0002ms, 0635ms total)
T38D4 000:888 JLINK_ReadReg(R15 (PC))  returns 0x20000000 (0000ms, 0633ms total)
T38D4 000:888 JLINK_ClrBPEx(BPHandle = 0x00000006)  returns 0x00 (0000ms, 0633ms total)
T38D4 000:888 JLINK_ReadReg(R0)  returns 0x00000000 (0000ms, 0633ms total)
T38D4 000:888 JLINK_WriteReg(R0, 0x00000001)  returns 0x00 (0000ms, 0633ms total)
T38D4 000:888 JLINK_WriteReg(R1, 0x00010000)  returns 0x00 (0000ms, 0633ms total)
T38D4 000:888 JLINK_WriteReg(R2, 0x000000FF)  returns 0x00 (0000ms, 0633ms total)
T38D4 000:888 JLINK_WriteReg(R3, 0x00000000)  returns 0x00 (0001ms, 0634ms total)
T38D4 000:889 JLINK_WriteReg(R4, 0x00000000)  returns 0x00 (0000ms, 0634ms total)
T38D4 000:889 JLINK_WriteReg(R5, 0x00000000)  returns 0x00 (0000ms, 0634ms total)
T38D4 000:889 JLINK_WriteReg(R6, 0x00000000)  returns 0x00 (0000ms, 0634ms total)
T38D4 000:889 JLINK_WriteReg(R7, 0x00000000)  returns 0x00 (0000ms, 0634ms total)
T38D4 000:889 JLINK_WriteReg(R8, 0x00000000)  returns 0x00 (0000ms, 0634ms total)
T38D4 000:889 JLINK_WriteReg(R9, 0x2000017C)  returns 0x00 (0000ms, 0634ms total)
T38D4 000:889 JLINK_WriteReg(R10, 0x00000000)  returns 0x00 (0000ms, 0634ms total)
T38D4 000:889 JLINK_WriteReg(R11, 0x00000000)  returns 0x00 (0000ms, 0634ms total)
T38D4 000:889 JLINK_WriteReg(R12, 0x00000000)  returns 0x00 (0000ms, 0634ms total)
T38D4 000:889 JLINK_WriteReg(R13 (SP), 0x20001000)  returns 0x00 (0001ms, 0635ms total)
T38D4 000:890 JLINK_WriteReg(R14, 0x20000001)  returns 0x00 (0000ms, 0635ms total)
T38D4 000:890 JLINK_WriteReg(R15 (PC), 0x20000082)  returns 0x00 (0000ms, 0635ms total)
T38D4 000:890 JLINK_WriteReg(XPSR, 0x01000000)  returns 0x00 (0000ms, 0635ms total)
T38D4 000:890 JLINK_WriteReg(MSP, 0x20001000)  returns 0x00 (0000ms, 0635ms total)
T38D4 000:890 JLINK_WriteReg(PSP, 0x20001000)  returns 0x00 (0000ms, 0635ms total)
T38D4 000:890 JLINK_WriteReg(CFBP, 0x00000000)  returns 0x00 (0000ms, 0635ms total)
T38D4 000:890 JLINK_SetBPEx(Addr = 0x20000000, Type = 0xFFFFFFF2)  returns 0x00000007 (0000ms, 0635ms total)
T38D4 000:890 JLINK_Go() (0002ms, 0637ms total)
T38D4 000:892 JLINK_IsHalted() -- CPU_ReadMem(2 bytes @ 0x20000000)  returns TRUE (0002ms, 0639ms total)
T38D4 000:894 JLINK_ReadReg(R15 (PC))  returns 0x20000000 (0000ms, 0637ms total)
T38D4 000:894 JLINK_ClrBPEx(BPHandle = 0x00000007)  returns 0x00 (0000ms, 0637ms total)
T38D4 000:894 JLINK_ReadReg(R0)  returns 0x00000000 (0000ms, 0637ms total)
T38D4 000:952 JLINK_WriteMem(0x20000000, 0x0180 Bytes, ...) - Data: 00 BE 0A E0 0D 78 2D 06 68 40 08 24 40 00 00 D3 ... -- CPU_WriteMem(384 bytes @ 0x20000000)  returns 0x180 (0002ms, 0639ms total)
T38D4 000:954 JLINK_WriteReg(R0, 0x08000000)  returns 0x00 (0000ms, 0639ms total)
T38D4 000:954 JLINK_WriteReg(R1, 0x00B71B00)  returns 0x00 (0000ms, 0639ms total)
T38D4 000:954 JLINK_WriteReg(R2, 0x00000002)  returns 0x00 (0000ms, 0639ms total)
T38D4 000:954 JLINK_WriteReg(R3, 0x00000000)  returns 0x00 (0000ms, 0639ms total)
T38D4 000:954 JLINK_WriteReg(R4, 0x00000000)  returns 0x00 (0000ms, 0639ms total)
T38D4 000:954 JLINK_WriteReg(R5, 0x00000000)  returns 0x00 (0000ms, 0639ms total)
T38D4 000:954 JLINK_WriteReg(R6, 0x00000000)  returns 0x00 (0000ms, 0639ms total)
T38D4 000:954 JLINK_WriteReg(R7, 0x00000000)  returns 0x00 (0001ms, 0640ms total)
T38D4 000:955 JLINK_WriteReg(R8, 0x00000000)  returns 0x00 (0000ms, 0640ms total)
T38D4 000:955 JLINK_WriteReg(R9, 0x2000017C)  returns 0x00 (0000ms, 0640ms total)
T38D4 000:955 JLINK_WriteReg(R10, 0x00000000)  returns 0x00 (0000ms, 0640ms total)
T38D4 000:955 JLINK_WriteReg(R11, 0x00000000)  returns 0x00 (0000ms, 0640ms total)
T38D4 000:955 JLINK_WriteReg(R12, 0x00000000)  returns 0x00 (0000ms, 0640ms total)
T38D4 000:955 JLINK_WriteReg(R13 (SP), 0x20001000)  returns 0x00 (0000ms, 0640ms total)
T38D4 000:955 JLINK_WriteReg(R14, 0x20000001)  returns 0x00 (0000ms, 0640ms total)
T38D4 000:955 JLINK_WriteReg(R15 (PC), 0x20000054)  returns 0x00 (0000ms, 0640ms total)
T38D4 000:955 JLINK_WriteReg(XPSR, 0x01000000)  returns 0x00 (0000ms, 0640ms total)
T38D4 000:955 JLINK_WriteReg(MSP, 0x20001000)  returns 0x00 (0001ms, 0641ms total)
T38D4 000:956 JLINK_WriteReg(PSP, 0x20001000)  returns 0x00 (0000ms, 0641ms total)
T38D4 000:956 JLINK_WriteReg(CFBP, 0x00000000)  returns 0x00 (0000ms, 0641ms total)
T38D4 000:956 JLINK_SetBPEx(Addr = 0x20000000, Type = 0xFFFFFFF2) -- CPU_ReadMem(2 bytes @ 0x20000000)  returns 0x00000008 (0000ms, 0641ms total)
T38D4 000:956 JLINK_Go() -- CPU_WriteMem(2 bytes @ 0x20000000) (0001ms, 0642ms total)
T38D4 000:957 JLINK_IsHalted() -- CPU_ReadMem(2 bytes @ 0x20000000)  returns TRUE (0003ms, 0645ms total)
T38D4 000:960 JLINK_ReadReg(R15 (PC))  returns 0x20000000 (0000ms, 0642ms total)
T38D4 000:960 JLINK_ClrBPEx(BPHandle = 0x00000008)  returns 0x00 (0000ms, 0642ms total)
T38D4 000:960 JLINK_ReadReg(R0)  returns 0x00000000 (0000ms, 0642ms total)
T38D4 000:960 JLINK_WriteMem(0x20000180, 0x0400 Bytes, ...) - Data: 88 42 00 20 9D 01 00 08 55 2A 00 08 63 1E 00 08 ... -- CPU_WriteMem(1024 bytes @ 0x20000180)  returns 0x400 (0004ms, 0646ms total)
T38D4 000:964 JLINK_WriteReg(R0, 0x08000000)  returns 0x00 (0000ms, 0646ms total)
T38D4 000:964 JLINK_WriteReg(R1, 0x00000400)  returns 0x00 (0000ms, 0646ms total)
T38D4 000:964 JLINK_WriteReg(R2, 0x20000180)  returns 0x00 (0000ms, 0646ms total)
T38D4 000:964 JLINK_WriteReg(R3, 0x00000000)  returns 0x00 (0000ms, 0646ms total)
T38D4 000:964 JLINK_WriteReg(R4, 0x00000000)  returns 0x00 (0000ms, 0646ms total)
T38D4 000:964 JLINK_WriteReg(R5, 0x00000000)  returns 0x00 (0000ms, 0646ms total)
T38D4 000:964 JLINK_WriteReg(R6, 0x00000000)  returns 0x00 (0000ms, 0646ms total)
T38D4 000:964 JLINK_WriteReg(R7, 0x00000000)  returns 0x00 (0000ms, 0646ms total)
T38D4 000:964 JLINK_WriteReg(R8, 0x00000000)  returns 0x00 (0001ms, 0647ms total)
T38D4 000:965 JLINK_WriteReg(R9, 0x2000017C)  returns 0x00 (0000ms, 0647ms total)
T38D4 000:965 JLINK_WriteReg(R10, 0x00000000)  returns 0x00 (0000ms, 0647ms total)
T38D4 000:965 JLINK_WriteReg(R11, 0x00000000)  returns 0x00 (0000ms, 0647ms total)
T38D4 000:965 JLINK_WriteReg(R12, 0x00000000)  returns 0x00 (0000ms, 0647ms total)
T38D4 000:965 JLINK_WriteReg(R13 (SP), 0x20001000)  returns 0x00 (0000ms, 0647ms total)
T38D4 000:965 JLINK_WriteReg(R14, 0x20000001)  returns 0x00 (0000ms, 0647ms total)
T38D4 000:965 JLINK_WriteReg(R15 (PC), 0x20000108)  returns 0x00 (0000ms, 0647ms total)
T38D4 000:965 JLINK_WriteReg(XPSR, 0x01000000)  returns 0x00 (0000ms, 0647ms total)
T38D4 000:965 JLINK_WriteReg(MSP, 0x20001000)  returns 0x00 (0000ms, 0647ms total)
T38D4 000:965 JLINK_WriteReg(PSP, 0x20001000)  returns 0x00 (0001ms, 0648ms total)
T38D4 000:966 JLINK_WriteReg(CFBP, 0x00000000)  returns 0x00 (0000ms, 0648ms total)
T38D4 000:966 JLINK_SetBPEx(Addr = 0x20000000, Type = 0xFFFFFFF2)  returns 0x00000009 (0000ms, 0648ms total)
T38D4 000:966 JLINK_Go() (0001ms, 0649ms total)
T38D4 000:967 JLINK_IsHalted()  returns FALSE (0000ms, 0649ms total)
T38D4 000:971 JLINK_IsHalted() -- CPU_ReadMem(2 bytes @ 0x20000000)  returns TRUE (0002ms, 0651ms total)
T38D4 000:973 JLINK_ReadReg(R15 (PC))  returns 0x20000000 (0000ms, 0649ms total)
T38D4 000:973 JLINK_ClrBPEx(BPHandle = 0x00000009)  returns 0x00 (0000ms, 0649ms total)
T38D4 000:973 JLINK_ReadReg(R0)  returns 0x00000000 (0000ms, 0649ms total)
T38D4 000:974 JLINK_WriteMem(0x20000180, 0x0400 Bytes, ...) - Data: 00 45 14 46 4F F0 00 0A 23 F0 00 41 50 EA 05 02 ... -- CPU_WriteMem(1024 bytes @ 0x20000180)  returns 0x400 (0003ms, 0652ms total)
T38D4 000:977 JLINK_WriteReg(R0, 0x08000400)  returns 0x00 (0000ms, 0652ms total)
T38D4 000:977 JLINK_WriteReg(R1, 0x00000400)  returns 0x00 (0001ms, 0653ms total)
T38D4 000:978 JLINK_WriteReg(R2, 0x20000180)  returns 0x00 (0000ms, 0653ms total)
T38D4 000:978 JLINK_WriteReg(R3, 0x00000000)  returns 0x00 (0000ms, 0653ms total)
T38D4 000:978 JLINK_WriteReg(R4, 0x00000000)  returns 0x00 (0000ms, 0653ms total)
T38D4 000:978 JLINK_WriteReg(R5, 0x00000000)  returns 0x00 (0000ms, 0653ms total)
T38D4 000:978 JLINK_WriteReg(R6, 0x00000000)  returns 0x00 (0000ms, 0653ms total)
T38D4 000:978 JLINK_WriteReg(R7, 0x00000000)  returns 0x00 (0000ms, 0653ms total)
T38D4 000:978 JLINK_WriteReg(R8, 0x00000000)  returns 0x00 (0000ms, 0653ms total)
T38D4 000:978 JLINK_WriteReg(R9, 0x2000017C)  returns 0x00 (0000ms, 0653ms total)
T38D4 000:978 JLINK_WriteReg(R10, 0x00000000)  returns 0x00 (0000ms, 0653ms total)
T38D4 000:978 JLINK_WriteReg(R11, 0x00000000)  returns 0x00 (0001ms, 0654ms total)
T38D4 000:979 JLINK_WriteReg(R12, 0x00000000)  returns 0x00 (0000ms, 0654ms total)
T38D4 000:979 JLINK_WriteReg(R13 (SP), 0x20001000)  returns 0x00 (0000ms, 0654ms total)
T38D4 000:979 JLINK_WriteReg(R14, 0x20000001)  returns 0x00 (0000ms, 0654ms total)
T38D4 000:979 JLINK_WriteReg(R15 (PC), 0x20000108)  returns 0x00 (0000ms, 0654ms total)
T38D4 000:979 JLINK_WriteReg(XPSR, 0x01000000)  returns 0x00 (0000ms, 0654ms total)
T38D4 000:979 JLINK_WriteReg(MSP, 0x20001000)  returns 0x00 (0000ms, 0654ms total)
T38D4 000:979 JLINK_WriteReg(PSP, 0x20001000)  returns 0x00 (0000ms, 0654ms total)
T38D4 000:979 JLINK_WriteReg(CFBP, 0x00000000)  returns 0x00 (0000ms, 0654ms total)
T38D4 000:979 JLINK_SetBPEx(Addr = 0x20000000, Type = 0xFFFFFFF2)  returns 0x0000000A (0001ms, 0655ms total)
T38D4 000:980 JLINK_Go() (0001ms, 0656ms total)
T38D4 000:981 JLINK_IsHalted()  returns FALSE (0000ms, 0656ms total)
T38D4 000:995 JLINK_IsHalted() -- CPU_ReadMem(2 bytes @ 0x20000000)  returns TRUE (0002ms, 0658ms total)
T38D4 000:997 JLINK_ReadReg(R15 (PC))  returns 0x20000000 (0000ms, 0656ms total)
T38D4 000:997 JLINK_ClrBPEx(BPHandle = 0x0000000A)  returns 0x00 (0000ms, 0656ms total)
T38D4 000:997 JLINK_ReadReg(R0)  returns 0x00000000 (0000ms, 0656ms total)
T38D4 000:997 JLINK_WriteMem(0x20000180, 0x0400 Bytes, ...) - Data: 12 48 02 40 D1 E9 01 04 20 43 CC 68 20 43 0C 69 ... -- CPU_WriteMem(1024 bytes @ 0x20000180)  returns 0x400 (0004ms, 0660ms total)
T38D4 001:001 JLINK_WriteReg(R0, 0x08000800)  returns 0x00 (0000ms, 0660ms total)
T38D4 001:001 JLINK_WriteReg(R1, 0x00000400)  returns 0x00 (0000ms, 0660ms total)
T38D4 001:001 JLINK_WriteReg(R2, 0x20000180)  returns 0x00 (0000ms, 0660ms total)
T38D4 001:001 JLINK_WriteReg(R3, 0x00000000)  returns 0x00 (0000ms, 0660ms total)
T38D4 001:001 JLINK_WriteReg(R4, 0x00000000)  returns 0x00 (0000ms, 0660ms total)
T38D4 001:001 JLINK_WriteReg(R5, 0x00000000)  returns 0x00 (0000ms, 0660ms total)
T38D4 001:001 JLINK_WriteReg(R6, 0x00000000)  returns 0x00 (0000ms, 0660ms total)
T38D4 001:001 JLINK_WriteReg(R7, 0x00000000)  returns 0x00 (0001ms, 0661ms total)
T38D4 001:002 JLINK_WriteReg(R8, 0x00000000)  returns 0x00 (0000ms, 0661ms total)
T38D4 001:002 JLINK_WriteReg(R9, 0x2000017C)  returns 0x00 (0000ms, 0661ms total)
T38D4 001:002 JLINK_WriteReg(R10, 0x00000000)  returns 0x00 (0000ms, 0661ms total)
T38D4 001:002 JLINK_WriteReg(R11, 0x00000000)  returns 0x00 (0000ms, 0661ms total)
T38D4 001:002 JLINK_WriteReg(R12, 0x00000000)  returns 0x00 (0000ms, 0661ms total)
T38D4 001:002 JLINK_WriteReg(R13 (SP), 0x20001000)  returns 0x00 (0000ms, 0661ms total)
T38D4 001:002 JLINK_WriteReg(R14, 0x20000001)  returns 0x00 (0000ms, 0661ms total)
T38D4 001:002 JLINK_WriteReg(R15 (PC), 0x20000108)  returns 0x00 (0000ms, 0661ms total)
T38D4 001:002 JLINK_WriteReg(XPSR, 0x01000000)  returns 0x00 (0001ms, 0662ms total)
T38D4 001:003 JLINK_WriteReg(MSP, 0x20001000)  returns 0x00 (0000ms, 0662ms total)
T38D4 001:003 JLINK_WriteReg(PSP, 0x20001000)  returns 0x00 (0000ms, 0662ms total)
T38D4 001:003 JLINK_WriteReg(CFBP, 0x00000000)  returns 0x00 (0000ms, 0662ms total)
T38D4 001:003 JLINK_SetBPEx(Addr = 0x20000000, Type = 0xFFFFFFF2)  returns 0x0000000B (0000ms, 0662ms total)
T38D4 001:003 JLINK_Go() (0002ms, 0664ms total)
T38D4 001:005 JLINK_IsHalted()  returns FALSE (0000ms, 0664ms total)
T38D4 001:006 JLINK_IsHalted()  returns FALSE (0000ms, 0664ms total)
T38D4 001:009 JLINK_IsHalted()  returns FALSE (0000ms, 0664ms total)
T38D4 001:010 JLINK_IsHalted() -- CPU_ReadMem(2 bytes @ 0x20000000)  returns TRUE (0002ms, 0666ms total)
T38D4 001:012 JLINK_ReadReg(R15 (PC))  returns 0x20000000 (0000ms, 0664ms total)
T38D4 001:012 JLINK_ClrBPEx(BPHandle = 0x0000000B)  returns 0x00 (0000ms, 0664ms total)
T38D4 001:012 JLINK_ReadReg(R0)  returns 0x00000000 (0000ms, 0664ms total)
T38D4 001:012 JLINK_WriteMem(0x20000180, 0x0400 Bytes, ...) - Data: 1D E0 E0 6B D8 B1 20 46 E1 6B 88 47 17 E0 20 68 ... -- CPU_WriteMem(1024 bytes @ 0x20000180)  returns 0x400 (0004ms, 0668ms total)
T38D4 001:016 JLINK_WriteReg(R0, 0x08000C00)  returns 0x00 (0000ms, 0668ms total)
T38D4 001:016 JLINK_WriteReg(R1, 0x00000400)  returns 0x00 (0000ms, 0668ms total)
T38D4 001:016 JLINK_WriteReg(R2, 0x20000180)  returns 0x00 (0000ms, 0668ms total)
T38D4 001:016 JLINK_WriteReg(R3, 0x00000000)  returns 0x00 (0000ms, 0668ms total)
T38D4 001:016 JLINK_WriteReg(R4, 0x00000000)  returns 0x00 (0000ms, 0668ms total)
T38D4 001:016 JLINK_WriteReg(R5, 0x00000000)  returns 0x00 (0000ms, 0668ms total)
T38D4 001:016 JLINK_WriteReg(R6, 0x00000000)  returns 0x00 (0000ms, 0668ms total)
T38D4 001:016 JLINK_WriteReg(R7, 0x00000000)  returns 0x00 (0000ms, 0668ms total)
T38D4 001:016 JLINK_WriteReg(R8, 0x00000000)  returns 0x00 (0000ms, 0668ms total)
T38D4 001:016 JLINK_WriteReg(R9, 0x2000017C)  returns 0x00 (0000ms, 0668ms total)
T38D4 001:016 JLINK_WriteReg(R10, 0x00000000)  returns 0x00 (0000ms, 0668ms total)
T38D4 001:016 JLINK_WriteReg(R11, 0x00000000)  returns 0x00 (0000ms, 0668ms total)
T38D4 001:016 JLINK_WriteReg(R12, 0x00000000)  returns 0x00 (0001ms, 0669ms total)
T38D4 001:017 JLINK_WriteReg(R13 (SP), 0x20001000)  returns 0x00 (0000ms, 0669ms total)
T38D4 001:017 JLINK_WriteReg(R14, 0x20000001)  returns 0x00 (0000ms, 0669ms total)
T38D4 001:017 JLINK_WriteReg(R15 (PC), 0x20000108)  returns 0x00 (0000ms, 0669ms total)
T38D4 001:017 JLINK_WriteReg(XPSR, 0x01000000)  returns 0x00 (0000ms, 0669ms total)
T38D4 001:017 JLINK_WriteReg(MSP, 0x20001000)  returns 0x00 (0000ms, 0669ms total)
T38D4 001:017 JLINK_WriteReg(PSP, 0x20001000)  returns 0x00 (0000ms, 0669ms total)
T38D4 001:017 JLINK_WriteReg(CFBP, 0x00000000)  returns 0x00 (0000ms, 0669ms total)
T38D4 001:017 JLINK_SetBPEx(Addr = 0x20000000, Type = 0xFFFFFFF2)  returns 0x0000000C (0000ms, 0669ms total)
T38D4 001:017 JLINK_Go() (0001ms, 0670ms total)
T38D4 001:019 JLINK_IsHalted()  returns FALSE (0000ms, 0671ms total)
T38D4 001:022 JLINK_IsHalted()  returns FALSE (0000ms, 0671ms total)
T38D4 001:024 JLINK_IsHalted() -- CPU_ReadMem(2 bytes @ 0x20000000)  returns TRUE (0002ms, 0673ms total)
T38D4 001:026 JLINK_ReadReg(R15 (PC))  returns 0x20000000 (0000ms, 0671ms total)
T38D4 001:026 JLINK_ClrBPEx(BPHandle = 0x0000000C)  returns 0x00 (0000ms, 0671ms total)
T38D4 001:026 JLINK_ReadReg(R0)  returns 0x00000000 (0000ms, 0671ms total)
T38D4 001:026 JLINK_WriteMem(0x20000180, 0x0400 Bytes, ...) - Data: 3A 4E 8F 08 56 F8 27 00 8E 07 37 0F 0F 26 BE 40 ... -- CPU_WriteMem(1024 bytes @ 0x20000180)  returns 0x400 (0004ms, 0675ms total)
T38D4 001:030 JLINK_WriteReg(R0, 0x08001000)  returns 0x00 (0000ms, 0675ms total)
T38D4 001:030 JLINK_WriteReg(R1, 0x00000400)  returns 0x00 (0000ms, 0675ms total)
T38D4 001:030 JLINK_WriteReg(R2, 0x20000180)  returns 0x00 (0000ms, 0675ms total)
T38D4 001:030 JLINK_WriteReg(R3, 0x00000000)  returns 0x00 (0000ms, 0675ms total)
T38D4 001:030 JLINK_WriteReg(R4, 0x00000000)  returns 0x00 (0000ms, 0675ms total)
T38D4 001:030 JLINK_WriteReg(R5, 0x00000000)  returns 0x00 (0000ms, 0675ms total)
T38D4 001:030 JLINK_WriteReg(R6, 0x00000000)  returns 0x00 (0000ms, 0675ms total)
T38D4 001:030 JLINK_WriteReg(R7, 0x00000000)  returns 0x00 (0000ms, 0675ms total)
T38D4 001:030 JLINK_WriteReg(R8, 0x00000000)  returns 0x00 (0000ms, 0675ms total)
T38D4 001:030 JLINK_WriteReg(R9, 0x2000017C)  returns 0x00 (0000ms, 0675ms total)
T38D4 001:030 JLINK_WriteReg(R10, 0x00000000)  returns 0x00 (0000ms, 0675ms total)
T38D4 001:030 JLINK_WriteReg(R11, 0x00000000)  returns 0x00 (0001ms, 0676ms total)
T38D4 001:031 JLINK_WriteReg(R12, 0x00000000)  returns 0x00 (0000ms, 0676ms total)
T38D4 001:031 JLINK_WriteReg(R13 (SP), 0x20001000)  returns 0x00 (0000ms, 0676ms total)
T38D4 001:031 JLINK_WriteReg(R14, 0x20000001)  returns 0x00 (0000ms, 0676ms total)
T38D4 001:031 JLINK_WriteReg(R15 (PC), 0x20000108)  returns 0x00 (0000ms, 0676ms total)
T38D4 001:031 JLINK_WriteReg(XPSR, 0x01000000)  returns 0x00 (0000ms, 0676ms total)
T38D4 001:031 JLINK_WriteReg(MSP, 0x20001000)  returns 0x00 (0000ms, 0676ms total)
T38D4 001:031 JLINK_WriteReg(PSP, 0x20001000)  returns 0x00 (0000ms, 0676ms total)
T38D4 001:031 JLINK_WriteReg(CFBP, 0x00000000)  returns 0x00 (0000ms, 0676ms total)
T38D4 001:031 JLINK_SetBPEx(Addr = 0x20000000, Type = 0xFFFFFFF2)  returns 0x0000000D (0000ms, 0676ms total)
T38D4 001:032 JLINK_Go() (0001ms, 0678ms total)
T38D4 001:033 JLINK_IsHalted()  returns FALSE (0000ms, 0678ms total)
T38D4 001:037 JLINK_IsHalted()  returns FALSE (0000ms, 0678ms total)
T38D4 001:038 JLINK_IsHalted() -- CPU_ReadMem(2 bytes @ 0x20000000)  returns TRUE (0002ms, 0680ms total)
T38D4 001:040 JLINK_ReadReg(R15 (PC))  returns 0x20000000 (0000ms, 0678ms total)
T38D4 001:040 JLINK_ClrBPEx(BPHandle = 0x0000000D)  returns 0x00 (0000ms, 0678ms total)
T38D4 001:040 JLINK_ReadReg(R0)  returns 0x00000000 (0000ms, 0678ms total)
T38D4 001:040 JLINK_WriteMem(0x20000180, 0x0400 Bytes, ...) - Data: 20 48 00 68 00 F0 0F 00 A8 42 09 D9 1D 49 0D 70 ... -- CPU_WriteMem(1024 bytes @ 0x20000180)  returns 0x400 (0004ms, 0682ms total)
T38D4 001:044 JLINK_WriteReg(R0, 0x08001400)  returns 0x00 (0000ms, 0682ms total)
T38D4 001:044 JLINK_WriteReg(R1, 0x00000400)  returns 0x00 (0000ms, 0682ms total)
T38D4 001:044 JLINK_WriteReg(R2, 0x20000180)  returns 0x00 (0000ms, 0682ms total)
T38D4 001:044 JLINK_WriteReg(R3, 0x00000000)  returns 0x00 (0000ms, 0682ms total)
T38D4 001:044 JLINK_WriteReg(R4, 0x00000000)  returns 0x00 (0000ms, 0682ms total)
T38D4 001:044 JLINK_WriteReg(R5, 0x00000000)  returns 0x00 (0000ms, 0682ms total)
T38D4 001:044 JLINK_WriteReg(R6, 0x00000000)  returns 0x00 (0000ms, 0682ms total)
T38D4 001:044 JLINK_WriteReg(R7, 0x00000000)  returns 0x00 (0000ms, 0682ms total)
T38D4 001:044 JLINK_WriteReg(R8, 0x00000000)  returns 0x00 (0001ms, 0683ms total)
T38D4 001:045 JLINK_WriteReg(R9, 0x2000017C)  returns 0x00 (0000ms, 0683ms total)
T38D4 001:045 JLINK_WriteReg(R10, 0x00000000)  returns 0x00 (0000ms, 0683ms total)
T38D4 001:045 JLINK_WriteReg(R11, 0x00000000)  returns 0x00 (0000ms, 0683ms total)
T38D4 001:045 JLINK_WriteReg(R12, 0x00000000)  returns 0x00 (0000ms, 0683ms total)
T38D4 001:045 JLINK_WriteReg(R13 (SP), 0x20001000)  returns 0x00 (0000ms, 0683ms total)
T38D4 001:045 JLINK_WriteReg(R14, 0x20000001)  returns 0x00 (0000ms, 0683ms total)
T38D4 001:045 JLINK_WriteReg(R15 (PC), 0x20000108)  returns 0x00 (0000ms, 0683ms total)
T38D4 001:045 JLINK_WriteReg(XPSR, 0x01000000)  returns 0x00 (0000ms, 0683ms total)
T38D4 001:045 JLINK_WriteReg(MSP, 0x20001000)  returns 0x00 (0000ms, 0683ms total)
T38D4 001:045 JLINK_WriteReg(PSP, 0x20001000)  returns 0x00 (0001ms, 0684ms total)
T38D4 001:046 JLINK_WriteReg(CFBP, 0x00000000)  returns 0x00 (0000ms, 0684ms total)
T38D4 001:046 JLINK_SetBPEx(Addr = 0x20000000, Type = 0xFFFFFFF2)  returns 0x0000000E (0000ms, 0684ms total)
T38D4 001:046 JLINK_Go() (0001ms, 0685ms total)
T38D4 001:047 JLINK_IsHalted()  returns FALSE (0001ms, 0686ms total)
T38D4 001:050 JLINK_IsHalted()  returns FALSE (0000ms, 0685ms total)
T38D4 001:052 JLINK_IsHalted()  returns FALSE (0000ms, 0685ms total)
T38D4 001:054 JLINK_IsHalted() -- CPU_ReadMem(2 bytes @ 0x20000000)  returns TRUE (0001ms, 0686ms total)
T38D4 001:055 JLINK_ReadReg(R15 (PC))  returns 0x20000000 (0000ms, 0685ms total)
T38D4 001:055 JLINK_ClrBPEx(BPHandle = 0x0000000E)  returns 0x00 (0000ms, 0685ms total)
T38D4 001:055 JLINK_ReadReg(R0)  returns 0x00000000 (0000ms, 0685ms total)
T38D4 001:056 JLINK_WriteMem(0x20000180, 0x0400 Bytes, ...) - Data: 80 50 66 49 38 31 08 60 08 46 00 68 00 F0 80 50 ... -- CPU_WriteMem(1024 bytes @ 0x20000180)  returns 0x400 (0003ms, 0688ms total)
T38D4 001:059 JLINK_WriteReg(R0, 0x08001800)  returns 0x00 (0000ms, 0688ms total)
T38D4 001:059 JLINK_WriteReg(R1, 0x00000400)  returns 0x00 (0000ms, 0688ms total)
T38D4 001:059 JLINK_WriteReg(R2, 0x20000180)  returns 0x00 (0000ms, 0688ms total)
T38D4 001:059 JLINK_WriteReg(R3, 0x00000000)  returns 0x00 (0000ms, 0688ms total)
T38D4 001:059 JLINK_WriteReg(R4, 0x00000000)  returns 0x00 (0000ms, 0688ms total)
T38D4 001:059 JLINK_WriteReg(R5, 0x00000000)  returns 0x00 (0000ms, 0688ms total)
T38D4 001:059 JLINK_WriteReg(R6, 0x00000000)  returns 0x00 (0000ms, 0688ms total)
T38D4 001:059 JLINK_WriteReg(R7, 0x00000000)  returns 0x00 (0000ms, 0688ms total)
T38D4 001:059 JLINK_WriteReg(R8, 0x00000000)  returns 0x00 (0001ms, 0689ms total)
T38D4 001:060 JLINK_WriteReg(R9, 0x2000017C)  returns 0x00 (0000ms, 0689ms total)
T38D4 001:060 JLINK_WriteReg(R10, 0x00000000)  returns 0x00 (0000ms, 0689ms total)
T38D4 001:060 JLINK_WriteReg(R11, 0x00000000)  returns 0x00 (0000ms, 0689ms total)
T38D4 001:060 JLINK_WriteReg(R12, 0x00000000)  returns 0x00 (0000ms, 0689ms total)
T38D4 001:060 JLINK_WriteReg(R13 (SP), 0x20001000)  returns 0x00 (0000ms, 0689ms total)
T38D4 001:060 JLINK_WriteReg(R14, 0x20000001)  returns 0x00 (0000ms, 0689ms total)
T38D4 001:060 JLINK_WriteReg(R15 (PC), 0x20000108)  returns 0x00 (0000ms, 0689ms total)
T38D4 001:060 JLINK_WriteReg(XPSR, 0x01000000)  returns 0x00 (0000ms, 0689ms total)
T38D4 001:060 JLINK_WriteReg(MSP, 0x20001000)  returns 0x00 (0000ms, 0689ms total)
T38D4 001:061 JLINK_WriteReg(PSP, 0x20001000)  returns 0x00 (0000ms, 0690ms total)
T38D4 001:061 JLINK_WriteReg(CFBP, 0x00000000)  returns 0x00 (0000ms, 0690ms total)
T38D4 001:061 JLINK_SetBPEx(Addr = 0x20000000, Type = 0xFFFFFFF2)  returns 0x0000000F (0000ms, 0690ms total)
T38D4 001:061 JLINK_Go() (0001ms, 0691ms total)
T38D4 001:062 JLINK_IsHalted()  returns FALSE (0000ms, 0691ms total)
T38D4 001:063 JLINK_IsHalted()  returns FALSE (0001ms, 0692ms total)
T38D4 001:066 JLINK_IsHalted()  returns FALSE (0000ms, 0691ms total)
T38D4 001:068 JLINK_IsHalted() -- CPU_ReadMem(2 bytes @ 0x20000000)  returns TRUE (0002ms, 0693ms total)
T38D4 001:070 JLINK_ReadReg(R15 (PC))  returns 0x20000000 (0000ms, 0691ms total)
T38D4 001:070 JLINK_ClrBPEx(BPHandle = 0x0000000F)  returns 0x00 (0000ms, 0691ms total)
T38D4 001:070 JLINK_ReadReg(R0)  returns 0x00000000 (0000ms, 0691ms total)
T38D4 001:072 JLINK_WriteMem(0x20000180, 0x0400 Bytes, ...) - Data: 01 F0 26 F9 78 E7 00 BF 76 E7 00 00 79 2D 00 08 ... -- CPU_WriteMem(1024 bytes @ 0x20000180)  returns 0x400 (0003ms, 0694ms total)
T38D4 001:075 JLINK_WriteReg(R0, 0x08001C00)  returns 0x00 (0000ms, 0694ms total)
T38D4 001:075 JLINK_WriteReg(R1, 0x00000400)  returns 0x00 (0000ms, 0694ms total)
T38D4 001:075 JLINK_WriteReg(R2, 0x20000180)  returns 0x00 (0000ms, 0694ms total)
T38D4 001:075 JLINK_WriteReg(R3, 0x00000000)  returns 0x00 (0000ms, 0694ms total)
T38D4 001:075 JLINK_WriteReg(R4, 0x00000000)  returns 0x00 (0000ms, 0694ms total)
T38D4 001:075 JLINK_WriteReg(R5, 0x00000000)  returns 0x00 (0000ms, 0694ms total)
T38D4 001:075 JLINK_WriteReg(R6, 0x00000000)  returns 0x00 (0000ms, 0694ms total)
T38D4 001:075 JLINK_WriteReg(R7, 0x00000000)  returns 0x00 (0000ms, 0694ms total)
T38D4 001:075 JLINK_WriteReg(R8, 0x00000000)  returns 0x00 (0000ms, 0694ms total)
T38D4 001:076 JLINK_WriteReg(R9, 0x2000017C)  returns 0x00 (0000ms, 0695ms total)
T38D4 001:076 JLINK_WriteReg(R10, 0x00000000)  returns 0x00 (0000ms, 0695ms total)
T38D4 001:076 JLINK_WriteReg(R11, 0x00000000)  returns 0x00 (0000ms, 0695ms total)
T38D4 001:076 JLINK_WriteReg(R12, 0x00000000)  returns 0x00 (0000ms, 0695ms total)
T38D4 001:076 JLINK_WriteReg(R13 (SP), 0x20001000)  returns 0x00 (0000ms, 0695ms total)
T38D4 001:076 JLINK_WriteReg(R14, 0x20000001)  returns 0x00 (0000ms, 0695ms total)
T38D4 001:076 JLINK_WriteReg(R15 (PC), 0x20000108)  returns 0x00 (0000ms, 0695ms total)
T38D4 001:076 JLINK_WriteReg(XPSR, 0x01000000)  returns 0x00 (0000ms, 0695ms total)
T38D4 001:076 JLINK_WriteReg(MSP, 0x20001000)  returns 0x00 (0000ms, 0695ms total)
T38D4 001:076 JLINK_WriteReg(PSP, 0x20001000)  returns 0x00 (0001ms, 0696ms total)
T38D4 001:077 JLINK_WriteReg(CFBP, 0x00000000)  returns 0x00 (0000ms, 0696ms total)
T38D4 001:077 JLINK_SetBPEx(Addr = 0x20000000, Type = 0xFFFFFFF2)  returns 0x00000010 (0000ms, 0696ms total)
T38D4 001:077 JLINK_Go() (0001ms, 0697ms total)
T38D4 001:078 JLINK_IsHalted()  returns FALSE (0001ms, 0698ms total)
T38D4 001:081 JLINK_IsHalted()  returns FALSE (0001ms, 0698ms total)
T38D4 001:083 JLINK_IsHalted() -- CPU_ReadMem(2 bytes @ 0x20000000)  returns TRUE (0002ms, 0699ms total)
T38D4 001:085 JLINK_ReadReg(R15 (PC))  returns 0x20000000 (0000ms, 0697ms total)
